
T5A88 000:266 SEGGER J-Link V4.54a Log File (0001ms, 0267ms total)
T5A88 000:266 DLL Compiled: Sep 17 2012 15:58:45 (0001ms, 0267ms total)
T5A88 000:266 Logging started @ 2015-08-29 11:29 (0001ms, 0267ms total)
T5A88 000:267 JLINK_SetWarnOutHandler(...) (0000ms, 0267ms total)
T5A88 000:267 JLINK_OpenEx(...)
Firmware: J-Link V9 compiled Feb 20 2015 09:20:19
Hardware: V9.30
S/N: 269301873
OEM: SEGGER-EDU
Feature(s): FlashBP, GDB  returns O.K. (0014ms, 0281ms total)
T5A88 000:281 JLINK_SetErrorOutHandler(...) (0000ms, 0281ms total)
T5A88 000:281 JLINK_ExecCommand("ProjectFile = "D:\tcp\LPC\LPC1768_MC_LWIP\Project\JLinkSettings.ini"", ...)  returns 0x00 (0000ms, 0281ms total)
T5A88 000:283 JLINK_ExecCommand("Device = LPC1768", ...)
                JLINK_ExecCommand("map ram 0x10000000 - 0x10007FFF", ...)  returns 0x00 (0000ms, 0000ms total)
                JLINK_AddMirrorAreaEx(Addr = 0x00000000, Size = 0x00000000) (0000ms, 0000ms total)
              Device "LPC1768" selected (512 KB flash, 32 KB RAM).  returns 0x00 (0005ms, 0286ms total)
T5A88 000:288 JLINK_ExecCommand("DisableConnectionTimeout", ...)  returns 0x00 (0000ms, 0286ms total)
T5A88 000:288 JLINK_TIF_Select(JLINKARM_TIF_SWD)  returns 0x00 (0001ms, 0287ms total)
T5A88 000:289 JLINK_SetSpeed(10000) (0000ms, 0287ms total)
T5A88 000:289 JLINK_GetHardwareVersion()  returns 0x16B48 (0000ms, 0287ms total)
T5A88 000:289 JLINK_GetDLLVersion()  returns 45401 (0000ms, 0287ms total)
T5A88 000:300 JLINK_GetDLLVersion()  returns 45401 (0000ms, 0287ms total)
T5A88 000:300 JLINK_GetCompileDateTime() (0000ms, 0287ms total)
T5A88 000:302 JLINK_GetFirmwareString(...) (0000ms, 0287ms total)
T5A88 000:304 JLINK_GetHardwareVersion()  returns 0x16B48 (0000ms, 0287ms total)
T5A88 000:314 JLINK_GetId() >0x108 TIF>Found SWD-DP with ID 0x2BA01477 >0x0D TIF> >0x21 TIF> >0x0D TIF> >0x28 TIF> >0x0D TIF> >0x28 TIF> >0x0D TIF> >0x21 TIF> >0x0D TIF> >0x21 TIF> >0x0D TIF> >0x28 TIF> >0x0D TIF> >0x21 TIF> >0x0D TIF> >0x21 TIF> >0x0D TIF> >0x21 TIF> >0x0D TIF> >0x21 TIF> >0x0D TIF> >0x21 TIF> >0x0D TIF> >0x28 TIF> >0x0D TIF> >0x28 TIF> >0x0D TIF> >0x21 TIF> >0x0D TIF> >0x21 TIF> >0x0D TIF> >0x28 TIF> >0x0D TIF> >0x21 TIF> >0x0D TIF> >0x21 TIF> >0x0D TIF> >0x28 TIF> >0x0D TIF>
 >0x28 TIF> >0x0D TIF> >0x28 TIF> >0x0D TIF> >0x21 TIF> >0x0D TIF> >0x21 TIF> >0x0D TIF> >0x28 TIF> >0x0D TIF> >0x28 TIF> >0x0D TIF> >0x28 TIF> >0x0D TIF> >0x21 TIF> >0x0D TIF> >0x21 TIF> >0x0D TIF> >0x21 TIF>TPIU fitted.ETM fitted. >0x0D TIF> >0x28 TIF> >0x0D TIF> >0x21 TIF> >0x0D TIF> >0x21 TIF> >0x0D TIF> >0x28 TIF> >0x0D TIF> >0x21 TIF> >0x0D TIF> >0x21 TIF>FPUnit: 6 code (BP) slots and 2 literal slots >0x0D TIF> >0x28 TIF> >0x0D TIF> >0x21 TIF> >0x0D TIF> >0x21 TIF> >0x0D TIF> >0x28 TIF> >0x0D TIF>
 >0x21 TIF> >0x0D TIF> >0x21 TIF> >0x0D TIF> >0x28 TIF> >0x0D TIF> >0x21 TIF> >0x0D TIF> >0x21 TIF> >0x0D TIF> >0x28 TIF> >0x0D TIF> >0x21 TIF> >0x0D TIF> >0x21 TIF>Found Cortex-M3 r2p0, Little endian. >0x0D TIF> >0x21 TIF>  returns 0x2BA01477 (0042ms, 0329ms total)
T5A88 000:356 JLINK_GetDeviceFamily()  returns 3 (0000ms, 0329ms total)
T5A88 000:358 JLINK_ReadMem (0xE00FFFF0, 0x0010 Bytes, ...) -- CPU is running -- CPU_ReadMem(16 bytes @ 0xE00FFFF0) -- Data:  0D 00 00 00 10 00 00 00 05 00 00 00 B1 00 00 00  returns 0x00 (0001ms, 0330ms total)
T5A88 000:359 JLINK_ReadMem (0xE00FFFD0, 0x0020 Bytes, ...) -- CPU is running -- CPU_ReadMem(32 bytes @ 0xE00FFFD0) -- Data:  00 00 00 00 00 00 00 00 00 00 00 00 00 00 00 00 ...  returns 0x00 (0001ms, 0331ms total)
T5A88 000:360 JLINK_ReadMem (0xE00FF000, 0x0018 Bytes, ...) -- CPU is running -- CPU_ReadMem(24 bytes @ 0xE00FF000) -- Data:  03 F0 F0 FF 03 20 F0 FF 03 30 F0 FF 03 10 F0 FF ...  returns 0x00 (0000ms, 0331ms total)
T5A88 000:360 JLINK_ReadMemU32(0xE000ED00, 0x0001 Items, ...) -- CPU is running -- CPU_ReadMem(4 bytes @ 0xE000ED00) -- Data:  30 C2 2F 41  returns 0x01 (0001ms, 0332ms total)
T5A88 000:361 JLINK_SetResetType(JLINKARM_RESET_TYPE_NORMAL)  returns ??? (0000ms, 0332ms total)
T5A88 000:361 JLINK_Reset() -- CPU is running -- CPU_WriteMem(4 bytes @ 0xE000EDF0) -- CPU is running -- CPU_WriteMem(4 bytes @ 0xE000EDFC) >0x35 TIF> -- CPU is running -- CPU_WriteMem(4 bytes @ 0xE000ED0C) -- CPU is running -- CPU_ReadMem(4 bytes @ 0xE000EDF0) -- CPU is running -- CPU_ReadMem(4 bytes @ 0xE000EDF0) -- CPU is running -- CPU_WriteMem(4 bytes @ 0xE000EDF0) -- CPU is running -- CPU_WriteMem(4 bytes @ 0xE000EDFC) -- CPU is running -- CPU_ReadMem(4 bytes @ 0xE000EDF0)
 -- CPU_WriteMem(4 bytes @ 0xE000EDFC) -- CPU_WriteMem(4 bytes @ 0xE000EDFC) -- CPU_WriteMem(4 bytes @ 0xE000EDFC) -- CPU_WriteMem(4 bytes @ 0xE000EDFC) -- CPU_WriteMem(4 bytes @ 0xE000EDFC) -- CPU_WriteMem(4 bytes @ 0xE0001050) -- CPU_WriteMem(4 bytes @ 0xE0001054) -- CPU_WriteMem(4 bytes @ 0xE0001058) -- CPU_WriteMem(4 bytes @ 0xE000EDFC) -- CPU_WriteMem(4 bytes @ 0xE0001058) -- CPU_ReadMem(4 bytes @ 0x00000004) -- CPU_ReadMem(4 bytes @ 0xE0002000) -- CPU_ReadMem(4 bytes @ 0xE0002008)
 -- CPU_ReadMem(4 bytes @ 0xE000200C) -- CPU_ReadMem(4 bytes @ 0xE0002010) -- CPU_ReadMem(4 bytes @ 0xE0002014) -- CPU_ReadMem(4 bytes @ 0xE0002018) -- CPU_ReadMem(4 bytes @ 0xE000201C) -- CPU_WriteMem(4 bytes @ 0xE0002000) -- CPU_WriteMem(4 bytes @ 0xE0002008) -- CPU_WriteMem(4 bytes @ 0xE000200C) -- CPU_WriteMem(4 bytes @ 0xE0002010) -- CPU_WriteMem(4 bytes @ 0xE0002014) -- CPU_WriteMem(4 bytes @ 0xE0002018) -- CPU_WriteMem(4 bytes @ 0xE000201C)
                JLINK_ReadMemHW(0x400FC040, 0x0004 Bytes, ...) -- CPU_ReadMem(4 bytes @ 0x400FC040) -- Data:  01 00 00 00  returns 0x00 (0001ms, 0001ms total)
               -- MA0 is in flash -- Unmirror addr 0x000001B0 -- CPU_WriteMem(4 bytes @ 0xE0002000) -- CPU_WriteMem(4 bytes @ 0xE0002008) -- CPU_WriteMem(4 bytes @ 0xE000200C) -- CPU_WriteMem(4 bytes @ 0xE0002010) -- CPU_WriteMem(4 bytes @ 0xE0002014) -- CPU_WriteMem(4 bytes @ 0xE0002018) -- CPU_WriteMem(4 bytes @ 0xE000201C) -- CPU_WriteMem(4 bytes @ 0xE0002000) (0235ms, 0567ms total)
T5A88 000:596 JLINK_Halt()  returns 0x00 (0000ms, 0567ms total)
T5A88 000:596 JLINK_IsHalted() -- Unmirror addr 0x000001B0  returns TRUE (0000ms, 0567ms total)
T5A88 000:596 JLINK_ReadMemU32(0xE000EDF0, 0x0001 Items, ...) -- CPU_ReadMem(4 bytes @ 0xE000EDF0) -- Data:  03 00 03 00  returns 0x01 (0001ms, 0568ms total)
T5A88 000:597 JLINK_WriteU32(0xE000EDF0, 0xA05F0003) -- CPU_WriteMem(4 bytes @ 0xE000EDF0) -- Invalidate MA0 status  returns 0x00 (0000ms, 0568ms total)
T5A88 000:597 JLINK_WriteU32(0xE000EDFC, 0x01000000) -- CPU_WriteMem(4 bytes @ 0xE000EDFC)  returns 0x00 (0001ms, 0569ms total)
T5A88 000:607 JLINK_GetHWStatus(...)  returns 0x00 (0000ms, 0569ms total)
T5A88 000:615 JLINK_GetNumBPUnits(Type = 0xFFFFFF00)  returns 0x06 (0000ms, 0569ms total)
T5A88 000:615 JLINK_GetNumBPUnits(Type = 0xF0)  returns 0x2000 (0000ms, 0569ms total)
T5A88 000:615 JLINK_GetNumWPUnits()  returns 0x04 (0000ms, 0569ms total)
T5A88 000:623 JLINK_GetSpeed()  returns 0x1770 (0000ms, 0569ms total)
T5A88 000:626 JLINK_ReadMemU32(0xE000E004, 0x0001 Items, ...) -- CPU_ReadMem(4 bytes @ 0xE000E004) -- Data:  01 00 00 00  returns 0x01 (0001ms, 0570ms total)
T5A88 000:627 JLINK_ReadMemU32(0xE000E004, 0x0001 Items, ...) -- CPU_ReadMem(4 bytes @ 0xE000E004) -- Data:  01 00 00 00  returns 0x01 (0000ms, 0570ms total)
T5A88 000:627 JLINK_WriteMem(0xE0001000, 0x001C Bytes, ...) -- Data:  01 00 00 00 00 00 00 00 00 00 00 00 00 00 00 00 ... -- CPU_WriteMem(28 bytes @ 0xE0001000)  returns 0x1C (0001ms, 0571ms total)
T5A88 000:628 JLINK_ReadMem (0xE0001000, 0x001C Bytes, ...) -- CPU_ReadMem(28 bytes @ 0xE0001000) -- Data:  01 00 00 40 00 00 00 00 00 00 00 00 00 00 00 00 ...  returns 0x00 (0001ms, 0572ms total)
T5A88 000:629 JLINK_Halt()  returns 0x00 (0000ms, 0572ms total)
T5A88 000:629 JLINK_IsHalted()
                JLINK_ReadMemHW(0x400FC040, 0x0004 Bytes, ...) -- CPU_ReadMem(4 bytes @ 0x400FC040) -- Data:  01 00 00 00  returns 0x00 (0000ms, 0000ms total)
               -- MA0 is in flash -- Unmirror addr 0x000001B0  returns TRUE (0000ms, 0572ms total)
T5A88 000:632 JLINK_WriteMem(0x10000000, 0x01E4 Bytes, ...) -- Data:  00 BE 0A E0 0D 78 2D 06 68 40 08 24 40 00 00 D3 ... -- CPU_WriteMem(484 bytes @ 0x10000000)  returns 0x1E4 (0002ms, 0574ms total)
T5A88 000:634 JLINK_WriteReg(R0, 0x00000000)  returns 0x00 (0000ms, 0574ms total)
T5A88 000:634 JLINK_WriteReg(R1, 0x00B71B00)  returns 0x00 (0000ms, 0574ms total)
T5A88 000:634 JLINK_WriteReg(R2, 0x00000001)  returns 0x00 (0000ms, 0574ms total)
T5A88 000:634 JLINK_WriteReg(R3, 0x00000000)  returns 0x00 (0000ms, 0574ms total)
T5A88 000:634 JLINK_WriteReg(R4, 0x00000000)  returns 0x00 (0000ms, 0574ms total)
T5A88 000:634 JLINK_WriteReg(R5, 0x00000000)  returns 0x00 (0000ms, 0574ms total)
T5A88 000:634 JLINK_WriteReg(R6, 0x00000000)  returns 0x00 (0000ms, 0574ms total)
T5A88 000:634 JLINK_WriteReg(R7, 0x00000000)  returns 0x00 (0000ms, 0574ms total)
T5A88 000:634 JLINK_WriteReg(R8, 0x00000000)  returns 0x00 (0000ms, 0574ms total)
T5A88 000:634 JLINK_WriteReg(R9, 0x100001DC)  returns 0x00 (0000ms, 0574ms total)
T5A88 000:634 JLINK_WriteReg(R10, 0x00000000)  returns 0x00 (0000ms, 0574ms total)
T5A88 000:634 JLINK_WriteReg(R11, 0x00000000)  returns 0x00 (0000ms, 0574ms total)
T5A88 000:634 JLINK_WriteReg(R12, 0x00000000)  returns 0x00 (0000ms, 0574ms total)
T5A88 000:634 JLINK_WriteReg(R13, 0x10000800)  returns 0x00 (0000ms, 0574ms total)
T5A88 000:634 JLINK_WriteReg(R14, 0x10000001)  returns 0x00 (0000ms, 0574ms total)
T5A88 000:634 JLINK_WriteReg(R15, 0x10000044)  returns 0x00 (0000ms, 0574ms total)
T5A88 000:634 JLINK_WriteReg(XPSR, 0x01000000)  returns 0x00 (0000ms, 0574ms total)
T5A88 000:634 JLINK_WriteReg(MSP, 0x10000800)  returns 0x00 (0000ms, 0574ms total)
T5A88 000:634 JLINK_WriteReg(PSP, 0x10000800)  returns 0x00 (0000ms, 0574ms total)
T5A88 000:634 JLINK_WriteReg(CFBP, 0x00000000)  returns 0x00 (0000ms, 0574ms total)
T5A88 000:634 JLINK_SetBPEx(Addr = 0x10000000, Type = 0xFFFFFFF2)  returns 0x00000001 (0000ms, 0574ms total)
T5A88 000:634 JLINK_Go() -- Invalidate MA0 status -- CPU_WriteMem(4 bytes @ 0xE0002008) -- CPU_WriteMem(4 bytes @ 0xE000200C) -- CPU_WriteMem(4 bytes @ 0xE0002010) -- CPU_WriteMem(4 bytes @ 0xE0002014) -- CPU_WriteMem(4 bytes @ 0xE0002018) -- CPU_WriteMem(4 bytes @ 0xE000201C) (0004ms, 0578ms total)
T5A88 000:638 JLINK_IsHalted()  returns TRUE (0001ms, 0579ms total)
T5A88 000:639 JLINK_ReadReg(R15)  returns 0x10000000 (0000ms, 0578ms total)
T5A88 000:639 JLINK_ClrBPEx(BPHandle = 0x00000001)  returns 0x00 (0000ms, 0578ms total)
T5A88 000:639 JLINK_ReadReg(R0)  returns 0x00000000 (0000ms, 0578ms total)
T5A88 000:640 JLINK_WriteReg(R0, 0x00000000)  returns 0x00 (0000ms, 0578ms total)
T5A88 000:640 JLINK_WriteReg(R1, 0x00B71B00)  returns 0x00 (0000ms, 0578ms total)
T5A88 000:640 JLINK_WriteReg(R2, 0x00000001)  returns 0x00 (0000ms, 0578ms total)
T5A88 000:640 JLINK_WriteReg(R3, 0x00000000)  returns 0x00 (0000ms, 0578ms total)
T5A88 000:640 JLINK_WriteReg(R4, 0x00000000)  returns 0x00 (0000ms, 0578ms total)
T5A88 000:640 JLINK_WriteReg(R5, 0x00000000)  returns 0x00 (0000ms, 0578ms total)
T5A88 000:640 JLINK_WriteReg(R6, 0x00000000)  returns 0x00 (0000ms, 0578ms total)
T5A88 000:640 JLINK_WriteReg(R7, 0x00000000)  returns 0x00 (0000ms, 0578ms total)
T5A88 000:640 JLINK_WriteReg(R8, 0x00000000)  returns 0x00 (0000ms, 0578ms total)
T5A88 000:640 JLINK_WriteReg(R9, 0x100001DC)  returns 0x00 (0000ms, 0578ms total)
T5A88 000:640 JLINK_WriteReg(R10, 0x00000000)  returns 0x00 (0000ms, 0578ms total)
T5A88 000:640 JLINK_WriteReg(R11, 0x00000000)  returns 0x00 (0000ms, 0578ms total)
T5A88 000:640 JLINK_WriteReg(R12, 0x00000000)  returns 0x00 (0000ms, 0578ms total)
T5A88 000:640 JLINK_WriteReg(R13, 0x10000800)  returns 0x00 (0000ms, 0578ms total)
T5A88 000:640 JLINK_WriteReg(R14, 0x10000001)  returns 0x00 (0000ms, 0578ms total)
T5A88 000:640 JLINK_WriteReg(R15, 0x100000D0)  returns 0x00 (0000ms, 0578ms total)
T5A88 000:640 JLINK_WriteReg(XPSR, 0x01000000)  returns 0x00 (0000ms, 0578ms total)
T5A88 000:640 JLINK_WriteReg(MSP, 0x10000800)  returns 0x00 (0000ms, 0578ms total)
T5A88 000:640 JLINK_WriteReg(PSP, 0x10000800)  returns 0x00 (0000ms, 0578ms total)
T5A88 000:640 JLINK_WriteReg(CFBP, 0x00000000)  returns 0x00 (0000ms, 0578ms total)
T5A88 000:640 JLINK_SetBPEx(Addr = 0x10000000, Type = 0xFFFFFFF2)  returns 0x00000002 (0000ms, 0578ms total)
T5A88 000:640 JLINK_Go() (0001ms, 0579ms total)
T5A88 000:641 JLINK_IsHalted()  returns FALSE (0001ms, 0580ms total)
T5A88 000:693 JLINK_IsHalted()  returns FALSE (0000ms, 0579ms total)
T5A88 000:744 JLINK_IsHalted()  returns TRUE (0002ms, 0581ms total)
T5A88 000:746 JLINK_ReadReg(R15)  returns 0x10000000 (0000ms, 0579ms total)
T5A88 000:746 JLINK_ClrBPEx(BPHandle = 0x00000002)  returns 0x00 (0000ms, 0579ms total)
T5A88 000:746 JLINK_ReadReg(R0)  returns 0x00000000 (0000ms, 0579ms total)
T5A88 000:798 JLINK_WriteReg(R0, 0x00000001)  returns 0x00 (0000ms, 0579ms total)
T5A88 000:798 JLINK_WriteReg(R1, 0x00B71B00)  returns 0x00 (0000ms, 0579ms total)
T5A88 000:798 JLINK_WriteReg(R2, 0x00000001)  returns 0x00 (0000ms, 0579ms total)
T5A88 000:798 JLINK_WriteReg(R3, 0x00000000)  returns 0x00 (0000ms, 0579ms total)
T5A88 000:798 JLINK_WriteReg(R4, 0x00000000)  returns 0x00 (0000ms, 0579ms total)
T5A88 000:798 JLINK_WriteReg(R5, 0x00000000)  returns 0x00 (0000ms, 0579ms total)
T5A88 000:798 JLINK_WriteReg(R6, 0x00000000)  returns 0x00 (0000ms, 0579ms total)
T5A88 000:798 JLINK_WriteReg(R7, 0x00000000)  returns 0x00 (0000ms, 0579ms total)
T5A88 000:798 JLINK_WriteReg(R8, 0x00000000)  returns 0x00 (0000ms, 0579ms total)
T5A88 000:798 JLINK_WriteReg(R9, 0x100001DC)  returns 0x00 (0000ms, 0579ms total)
T5A88 000:798 JLINK_WriteReg(R10, 0x00000000)  returns 0x00 (0000ms, 0579ms total)
T5A88 000:798 JLINK_WriteReg(R11, 0x00000000)  returns 0x00 (0000ms, 0579ms total)
T5A88 000:798 JLINK_WriteReg(R12, 0x00000000)  returns 0x00 (0000ms, 0579ms total)
T5A88 000:798 JLINK_WriteReg(R13, 0x10000800)  returns 0x00 (0000ms, 0579ms total)
T5A88 000:798 JLINK_WriteReg(R14, 0x10000001)  returns 0x00 (0000ms, 0579ms total)
T5A88 000:798 JLINK_WriteReg(R15, 0x100000CC)  returns 0x00 (0000ms, 0579ms total)
T5A88 000:798 JLINK_WriteReg(XPSR, 0x01000000)  returns 0x00 (0000ms, 0579ms total)
T5A88 000:798 JLINK_WriteReg(MSP, 0x10000800)  returns 0x00 (0000ms, 0579ms total)
T5A88 000:798 JLINK_WriteReg(PSP, 0x10000800)  returns 0x00 (0000ms, 0579ms total)
T5A88 000:798 JLINK_WriteReg(CFBP, 0x00000000)  returns 0x00 (0000ms, 0579ms total)
T5A88 000:798 JLINK_SetBPEx(Addr = 0x10000000, Type = 0xFFFFFFF2)  returns 0x00000003 (0000ms, 0579ms total)
T5A88 000:798 JLINK_Go() (0001ms, 0580ms total)
T5A88 000:799 JLINK_IsHalted()  returns TRUE (0002ms, 0582ms total)
T5A88 000:801 JLINK_ReadReg(R15)  returns 0x10000000 (0000ms, 0580ms total)
T5A88 000:801 JLINK_ClrBPEx(BPHandle = 0x00000003)  returns 0x00 (0000ms, 0580ms total)
T5A88 000:801 JLINK_ReadReg(R0)  returns 0x00000000 (0000ms, 0580ms total)
T5A88 000:805 JLINK_WriteMem(0x10000000, 0x01E4 Bytes, ...) -- Data:  00 BE 0A E0 0D 78 2D 06 68 40 08 24 40 00 00 D3 ... -- CPU_WriteMem(484 bytes @ 0x10000000)  returns 0x1E4 (0002ms, 0582ms total)
T5A88 000:807 JLINK_WriteReg(R0, 0x00000000)  returns 0x00 (0000ms, 0582ms total)
T5A88 000:807 JLINK_WriteReg(R1, 0x00B71B00)  returns 0x00 (0000ms, 0582ms total)
T5A88 000:807 JLINK_WriteReg(R2, 0x00000002)  returns 0x00 (0000ms, 0582ms total)
T5A88 000:807 JLINK_WriteReg(R3, 0x00000000)  returns 0x00 (0000ms, 0582ms total)
T5A88 000:807 JLINK_WriteReg(R4, 0x00000000)  returns 0x00 (0001ms, 0583ms total)
T5A88 000:808 JLINK_WriteReg(R5, 0x00000000)  returns 0x00 (0000ms, 0583ms total)
T5A88 000:808 JLINK_WriteReg(R6, 0x00000000)  returns 0x00 (0000ms, 0583ms total)
T5A88 000:808 JLINK_WriteReg(R7, 0x00000000)  returns 0x00 (0000ms, 0583ms total)
T5A88 000:808 JLINK_WriteReg(R8, 0x00000000)  returns 0x00 (0000ms, 0583ms total)
T5A88 000:808 JLINK_WriteReg(R9, 0x100001DC)  returns 0x00 (0000ms, 0583ms total)
T5A88 000:808 JLINK_WriteReg(R10, 0x00000000)  returns 0x00 (0000ms, 0583ms total)
T5A88 000:808 JLINK_WriteReg(R11, 0x00000000)  returns 0x00 (0000ms, 0583ms total)
T5A88 000:808 JLINK_WriteReg(R12, 0x00000000)  returns 0x00 (0000ms, 0583ms total)
T5A88 000:808 JLINK_WriteReg(R13, 0x10000800)  returns 0x00 (0000ms, 0583ms total)
T5A88 000:808 JLINK_WriteReg(R14, 0x10000001)  returns 0x00 (0000ms, 0583ms total)
T5A88 000:808 JLINK_WriteReg(R15, 0x10000044)  returns 0x00 (0000ms, 0583ms total)
T5A88 000:808 JLINK_WriteReg(XPSR, 0x01000000)  returns 0x00 (0000ms, 0583ms total)
T5A88 000:808 JLINK_WriteReg(MSP, 0x10000800)  returns 0x00 (0000ms, 0583ms total)
T5A88 000:808 JLINK_WriteReg(PSP, 0x10000800)  returns 0x00 (0000ms, 0583ms total)
T5A88 000:808 JLINK_WriteReg(CFBP, 0x00000000)  returns 0x00 (0000ms, 0583ms total)
T5A88 000:808 JLINK_SetBPEx(Addr = 0x10000000, Type = 0xFFFFFFF2)  returns 0x00000004 (0000ms, 0583ms total)
T5A88 000:808 JLINK_Go() (0001ms, 0584ms total)
T5A88 000:809 JLINK_IsHalted()  returns TRUE (0001ms, 0585ms total)
T5A88 000:810 JLINK_ReadReg(R15)  returns 0x10000000 (0000ms, 0584ms total)
T5A88 000:810 JLINK_ClrBPEx(BPHandle = 0x00000004)  returns 0x00 (0000ms, 0584ms total)
T5A88 000:810 JLINK_ReadReg(R0)  returns 0x00000000 (0000ms, 0584ms total)
T5A88 000:811 JLINK_WriteMem(0x10000204, 0x0400 Bytes, ...) -- Data:  80 6A 00 10 B1 01 00 00 B9 01 00 00 BB 01 00 00 ... -- CPU_WriteMem(1024 bytes @ 0x10000204)  returns 0x400 (0003ms, 0587ms total)
T5A88 000:814 JLINK_WriteReg(R0, 0x00000000)  returns 0x00 (0000ms, 0587ms total)
T5A88 000:814 JLINK_WriteReg(R1, 0x00000400)  returns 0x00 (0000ms, 0587ms total)
T5A88 000:814 JLINK_WriteReg(R2, 0x10000204)  returns 0x00 (0000ms, 0587ms total)
T5A88 000:814 JLINK_WriteReg(R3, 0x00000000)  returns 0x00 (0000ms, 0587ms total)
T5A88 000:814 JLINK_WriteReg(R4, 0x00000000)  returns 0x00 (0000ms, 0587ms total)
T5A88 000:815 JLINK_WriteReg(R5, 0x00000000)  returns 0x00 (0000ms, 0588ms total)
T5A88 000:815 JLINK_WriteReg(R6, 0x00000000)  returns 0x00 (0000ms, 0588ms total)
T5A88 000:815 JLINK_WriteReg(R7, 0x00000000)  returns 0x00 (0000ms, 0588ms total)
T5A88 000:815 JLINK_WriteReg(R8, 0x00000000)  returns 0x00 (0000ms, 0588ms total)
T5A88 000:815 JLINK_WriteReg(R9, 0x100001DC)  returns 0x00 (0000ms, 0588ms total)
T5A88 000:815 JLINK_WriteReg(R10, 0x00000000)  returns 0x00 (0000ms, 0588ms total)
T5A88 000:815 JLINK_WriteReg(R11, 0x00000000)  returns 0x00 (0000ms, 0588ms total)
T5A88 000:815 JLINK_WriteReg(R12, 0x00000000)  returns 0x00 (0000ms, 0588ms total)
T5A88 000:815 JLINK_WriteReg(R13, 0x10000800)  returns 0x00 (0000ms, 0588ms total)
T5A88 000:815 JLINK_WriteReg(R14, 0x10000001)  returns 0x00 (0000ms, 0588ms total)
T5A88 000:815 JLINK_WriteReg(R15, 0x10000156)  returns 0x00 (0000ms, 0588ms total)
T5A88 000:815 JLINK_WriteReg(XPSR, 0x01000000)  returns 0x00 (0000ms, 0588ms total)
T5A88 000:815 JLINK_WriteReg(MSP, 0x10000800)  returns 0x00 (0000ms, 0588ms total)
T5A88 000:815 JLINK_WriteReg(PSP, 0x10000800)  returns 0x00 (0000ms, 0588ms total)
T5A88 000:815 JLINK_WriteReg(CFBP, 0x00000000)  returns 0x00 (0000ms, 0588ms total)
T5A88 000:815 JLINK_SetBPEx(Addr = 0x10000000, Type = 0xFFFFFFF2)  returns 0x00000005 (0000ms, 0588ms total)
T5A88 000:815 JLINK_Go() (0001ms, 0589ms total)
T5A88 000:816 JLINK_IsHalted()  returns FALSE (0000ms, 0589ms total)
T5A88 000:867 JLINK_IsHalted()  returns TRUE (0002ms, 0591ms total)
T5A88 000:869 JLINK_ReadReg(R15)  returns 0x10000000 (0000ms, 0589ms total)
T5A88 000:869 JLINK_ClrBPEx(BPHandle = 0x00000005)  returns 0x00 (0000ms, 0589ms total)
T5A88 000:869 JLINK_ReadReg(R0)  returns 0x00000000 (0000ms, 0589ms total)
T5A88 000:869 JLINK_WriteMem(0x10000204, 0x0400 Bytes, ...) -- Data:  00 FB 01 F0 37 49 D1 F8 88 10 C1 F3 07 41 01 F1 ... -- CPU_WriteMem(1024 bytes @ 0x10000204)  returns 0x400 (0004ms, 0593ms total)
T5A88 000:873 JLINK_WriteReg(R0, 0x00000400)  returns 0x00 (0000ms, 0593ms total)
T5A88 000:873 JLINK_WriteReg(R1, 0x00000400)  returns 0x00 (0000ms, 0593ms total)
T5A88 000:873 JLINK_WriteReg(R2, 0x10000204)  returns 0x00 (0000ms, 0593ms total)
T5A88 000:873 JLINK_WriteReg(R3, 0x00000000)  returns 0x00 (0000ms, 0593ms total)
T5A88 000:873 JLINK_WriteReg(R4, 0x00000000)  returns 0x00 (0000ms, 0593ms total)
T5A88 000:873 JLINK_WriteReg(R5, 0x00000000)  returns 0x00 (0000ms, 0593ms total)
T5A88 000:873 JLINK_WriteReg(R6, 0x00000000)  returns 0x00 (0000ms, 0593ms total)
T5A88 000:873 JLINK_WriteReg(R7, 0x00000000)  returns 0x00 (0000ms, 0593ms total)
T5A88 000:873 JLINK_WriteReg(R8, 0x00000000)  returns 0x00 (0000ms, 0593ms total)
T5A88 000:873 JLINK_WriteReg(R9, 0x100001DC)  returns 0x00 (0000ms, 0593ms total)
T5A88 000:873 JLINK_WriteReg(R10, 0x00000000)  returns 0x00 (0000ms, 0593ms total)
T5A88 000:873 JLINK_WriteReg(R11, 0x00000000)  returns 0x00 (0000ms, 0593ms total)
T5A88 000:873 JLINK_WriteReg(R12, 0x00000000)  returns 0x00 (0000ms, 0593ms total)
T5A88 000:873 JLINK_WriteReg(R13, 0x10000800)  returns 0x00 (0000ms, 0593ms total)
T5A88 000:873 JLINK_WriteReg(R14, 0x10000001)  returns 0x00 (0000ms, 0593ms total)
T5A88 000:873 JLINK_WriteReg(R15, 0x10000156)  returns 0x00 (0000ms, 0593ms total)
T5A88 000:873 JLINK_WriteReg(XPSR, 0x01000000)  returns 0x00 (0000ms, 0593ms total)
T5A88 000:873 JLINK_WriteReg(MSP, 0x10000800)  returns 0x00 (0000ms, 0593ms total)
T5A88 000:873 JLINK_WriteReg(PSP, 0x10000800)  returns 0x00 (0000ms, 0593ms total)
T5A88 000:873 JLINK_WriteReg(CFBP, 0x00000000)  returns 0x00 (0000ms, 0593ms total)
T5A88 000:873 JLINK_SetBPEx(Addr = 0x10000000, Type = 0xFFFFFFF2)  returns 0x00000006 (0000ms, 0593ms total)
T5A88 000:873 JLINK_Go() (0001ms, 0594ms total)
T5A88 000:874 JLINK_IsHalted()  returns FALSE (0001ms, 0595ms total)
T5A88 000:926 JLINK_IsHalted()  returns TRUE (0001ms, 0595ms total)
T5A88 000:927 JLINK_ReadReg(R15)  returns 0x10000000 (0000ms, 0594ms total)
T5A88 000:927 JLINK_ClrBPEx(BPHandle = 0x00000006)  returns 0x00 (0000ms, 0594ms total)
T5A88 000:927 JLINK_ReadReg(R0)  returns 0x00000000 (0000ms, 0594ms total)
T5A88 000:928 JLINK_WriteMem(0x10000204, 0x0400 Bytes, ...) -- Data:  21 46 28 46 02 F0 9E FB 6C 49 28 46 02 F0 9C FB ... -- CPU_WriteMem(1024 bytes @ 0x10000204)  returns 0x400 (0004ms, 0598ms total)
T5A88 000:932 JLINK_WriteReg(R0, 0x00000800)  returns 0x00 (0000ms, 0598ms total)
T5A88 000:932 JLINK_WriteReg(R1, 0x00000400)  returns 0x00 (0000ms, 0598ms total)
T5A88 000:932 JLINK_WriteReg(R2, 0x10000204)  returns 0x00 (0000ms, 0598ms total)
T5A88 000:932 JLINK_WriteReg(R3, 0x00000000)  returns 0x00 (0000ms, 0598ms total)
T5A88 000:932 JLINK_WriteReg(R4, 0x00000000)  returns 0x00 (0000ms, 0598ms total)
T5A88 000:932 JLINK_WriteReg(R5, 0x00000000)  returns 0x00 (0000ms, 0598ms total)
T5A88 000:932 JLINK_WriteReg(R6, 0x00000000)  returns 0x00 (0000ms, 0598ms total)
T5A88 000:932 JLINK_WriteReg(R7, 0x00000000)  returns 0x00 (0000ms, 0598ms total)
T5A88 000:932 JLINK_WriteReg(R8, 0x00000000)  returns 0x00 (0000ms, 0598ms total)
T5A88 000:932 JLINK_WriteReg(R9, 0x100001DC)  returns 0x00 (0000ms, 0598ms total)
T5A88 000:932 JLINK_WriteReg(R10, 0x00000000)  returns 0x00 (0000ms, 0598ms total)
T5A88 000:932 JLINK_WriteReg(R11, 0x00000000)  returns 0x00 (0000ms, 0598ms total)
T5A88 000:932 JLINK_WriteReg(R12, 0x00000000)  returns 0x00 (0000ms, 0598ms total)
T5A88 000:932 JLINK_WriteReg(R13, 0x10000800)  returns 0x00 (0000ms, 0598ms total)
T5A88 000:932 JLINK_WriteReg(R14, 0x10000001)  returns 0x00 (0000ms, 0598ms total)
T5A88 000:932 JLINK_WriteReg(R15, 0x10000156)  returns 0x00 (0000ms, 0598ms total)
T5A88 000:932 JLINK_WriteReg(XPSR, 0x01000000)  returns 0x00 (0000ms, 0598ms total)
T5A88 000:932 JLINK_WriteReg(MSP, 0x10000800)  returns 0x00 (0000ms, 0598ms total)
T5A88 000:932 JLINK_WriteReg(PSP, 0x10000800)  returns 0x00 (0000ms, 0598ms total)
T5A88 000:932 JLINK_WriteReg(CFBP, 0x00000000)  returns 0x00 (0000ms, 0598ms total)
T5A88 000:932 JLINK_SetBPEx(Addr = 0x10000000, Type = 0xFFFFFFF2)  returns 0x00000007 (0000ms, 0598ms total)
T5A88 000:932 JLINK_Go() (0001ms, 0599ms total)
T5A88 000:933 JLINK_IsHalted()  returns FALSE (0001ms, 0600ms total)
T5A88 000:985 JLINK_IsHalted()  returns TRUE (0002ms, 0601ms total)
T5A88 000:987 JLINK_ReadReg(R15)  returns 0x10000000 (0000ms, 0599ms total)
T5A88 000:987 JLINK_ClrBPEx(BPHandle = 0x00000007)  returns 0x00 (0000ms, 0599ms total)
T5A88 000:987 JLINK_ReadReg(R0)  returns 0x00000000 (0000ms, 0599ms total)
T5A88 000:987 JLINK_WriteMem(0x10000204, 0x0400 Bytes, ...) -- Data:  00 01 4F F0 15 00 88 60 03 E0 12 20 4F F0 A0 41 ... -- CPU_WriteMem(1024 bytes @ 0x10000204)  returns 0x400 (0004ms, 0603ms total)
T5A88 000:991 JLINK_WriteReg(R0, 0x00000C00)  returns 0x00 (0000ms, 0603ms total)
T5A88 000:991 JLINK_WriteReg(R1, 0x00000400)  returns 0x00 (0000ms, 0603ms total)
T5A88 000:991 JLINK_WriteReg(R2, 0x10000204)  returns 0x00 (0000ms, 0603ms total)
T5A88 000:991 JLINK_WriteReg(R3, 0x00000000)  returns 0x00 (0000ms, 0603ms total)
T5A88 000:991 JLINK_WriteReg(R4, 0x00000000)  returns 0x00 (0000ms, 0603ms total)
T5A88 000:991 JLINK_WriteReg(R5, 0x00000000)  returns 0x00 (0000ms, 0603ms total)
T5A88 000:991 JLINK_WriteReg(R6, 0x00000000)  returns 0x00 (0000ms, 0603ms total)
T5A88 000:991 JLINK_WriteReg(R7, 0x00000000)  returns 0x00 (0000ms, 0603ms total)
T5A88 000:991 JLINK_WriteReg(R8, 0x00000000)  returns 0x00 (0000ms, 0603ms total)
T5A88 000:991 JLINK_WriteReg(R9, 0x100001DC)  returns 0x00 (0000ms, 0603ms total)
T5A88 000:991 JLINK_WriteReg(R10, 0x00000000)  returns 0x00 (0000ms, 0603ms total)
T5A88 000:991 JLINK_WriteReg(R11, 0x00000000)  returns 0x00 (0000ms, 0603ms total)
T5A88 000:991 JLINK_WriteReg(R12, 0x00000000)  returns 0x00 (0000ms, 0603ms total)
T5A88 000:991 JLINK_WriteReg(R13, 0x10000800)  returns 0x00 (0000ms, 0603ms total)
T5A88 000:991 JLINK_WriteReg(R14, 0x10000001)  returns 0x00 (0000ms, 0603ms total)
T5A88 000:991 JLINK_WriteReg(R15, 0x10000156)  returns 0x00 (0000ms, 0603ms total)
T5A88 000:991 JLINK_WriteReg(XPSR, 0x01000000)  returns 0x00 (0000ms, 0603ms total)
T5A88 000:991 JLINK_WriteReg(MSP, 0x10000800)  returns 0x00 (0000ms, 0603ms total)
T5A88 000:991 JLINK_WriteReg(PSP, 0x10000800)  returns 0x00 (0000ms, 0603ms total)
T5A88 000:991 JLINK_WriteReg(CFBP, 0x00000000)  returns 0x00 (0000ms, 0603ms total)
T5A88 000:991 JLINK_SetBPEx(Addr = 0x10000000, Type = 0xFFFFFFF2)  returns 0x00000008 (0000ms, 0603ms total)
T5A88 000:991 JLINK_Go() (0001ms, 0604ms total)
T5A88 000:992 JLINK_IsHalted()  returns FALSE (0001ms, 0605ms total)
T5A88 001:044 JLINK_IsHalted()  returns TRUE (0002ms, 0606ms total)
T5A88 001:046 JLINK_ReadReg(R15)  returns 0x10000000 (0000ms, 0604ms total)
T5A88 001:046 JLINK_ClrBPEx(BPHandle = 0x00000008)  returns 0x00 (0000ms, 0604ms total)
T5A88 001:046 JLINK_ReadReg(R0)  returns 0x00000000 (0000ms, 0604ms total)
T5A88 001:046 JLINK_WriteMem(0x10000204, 0x0400 Bytes, ...) -- Data:  4F F0 A0 41 D1 F8 14 11 88 42 01 D0 01 20 70 47 ... -- CPU_WriteMem(1024 bytes @ 0x10000204)  returns 0x400 (0004ms, 0608ms total)
T5A88 001:050 JLINK_WriteReg(R0, 0x00001000)  returns 0x00 (0000ms, 0608ms total)
T5A88 001:050 JLINK_WriteReg(R1, 0x00000400)  returns 0x00 (0000ms, 0608ms total)
T5A88 001:050 JLINK_WriteReg(R2, 0x10000204)  returns 0x00 (0000ms, 0608ms total)
T5A88 001:050 JLINK_WriteReg(R3, 0x00000000)  returns 0x00 (0000ms, 0608ms total)
T5A88 001:050 JLINK_WriteReg(R4, 0x00000000)  returns 0x00 (0000ms, 0608ms total)
T5A88 001:050 JLINK_WriteReg(R5, 0x00000000)  returns 0x00 (0000ms, 0608ms total)
T5A88 001:050 JLINK_WriteReg(R6, 0x00000000)  returns 0x00 (0000ms, 0608ms total)
T5A88 001:050 JLINK_WriteReg(R7, 0x00000000)  returns 0x00 (0000ms, 0608ms total)
T5A88 001:050 JLINK_WriteReg(R8, 0x00000000)  returns 0x00 (0000ms, 0608ms total)
T5A88 001:050 JLINK_WriteReg(R9, 0x100001DC)  returns 0x00 (0000ms, 0608ms total)
T5A88 001:050 JLINK_WriteReg(R10, 0x00000000)  returns 0x00 (0000ms, 0608ms total)
T5A88 001:050 JLINK_WriteReg(R11, 0x00000000)  returns 0x00 (0000ms, 0608ms total)
T5A88 001:050 JLINK_WriteReg(R12, 0x00000000)  returns 0x00 (0000ms, 0608ms total)
T5A88 001:050 JLINK_WriteReg(R13, 0x10000800)  returns 0x00 (0000ms, 0608ms total)
T5A88 001:050 JLINK_WriteReg(R14, 0x10000001)  returns 0x00 (0000ms, 0608ms total)
T5A88 001:050 JLINK_WriteReg(R15, 0x10000156)  returns 0x00 (0000ms, 0608ms total)
T5A88 001:050 JLINK_WriteReg(XPSR, 0x01000000)  returns 0x00 (0000ms, 0608ms total)
T5A88 001:050 JLINK_WriteReg(MSP, 0x10000800)  returns 0x00 (0000ms, 0608ms total)
T5A88 001:050 JLINK_WriteReg(PSP, 0x10000800)  returns 0x00 (0000ms, 0608ms total)
T5A88 001:050 JLINK_WriteReg(CFBP, 0x00000000)  returns 0x00 (0000ms, 0608ms total)
T5A88 001:050 JLINK_SetBPEx(Addr = 0x10000000, Type = 0xFFFFFFF2)  returns 0x00000009 (0000ms, 0608ms total)
T5A88 001:050 JLINK_Go() (0001ms, 0609ms total)
T5A88 001:051 JLINK_IsHalted()  returns FALSE (0001ms, 0610ms total)
T5A88 001:103 JLINK_IsHalted()  returns TRUE (0001ms, 0610ms total)
T5A88 001:104 JLINK_ReadReg(R15)  returns 0x10000000 (0000ms, 0609ms total)
T5A88 001:104 JLINK_ClrBPEx(BPHandle = 0x00000009)  returns 0x00 (0000ms, 0609ms total)
T5A88 001:104 JLINK_ReadReg(R0)  returns 0x00000000 (0000ms, 0609ms total)
T5A88 001:105 JLINK_WriteMem(0x10000204, 0x0400 Bytes, ...) -- Data:  03 79 0B B1 00 BF 00 BF 00 BF 00 BF 03 88 B3 F5 ... -- CPU_WriteMem(1024 bytes @ 0x10000204)  returns 0x400 (0004ms, 0613ms total)
T5A88 001:109 JLINK_WriteReg(R0, 0x00001400)  returns 0x00 (0000ms, 0613ms total)
T5A88 001:109 JLINK_WriteReg(R1, 0x00000400)  returns 0x00 (0000ms, 0613ms total)
T5A88 001:109 JLINK_WriteReg(R2, 0x10000204)  returns 0x00 (0000ms, 0613ms total)
T5A88 001:109 JLINK_WriteReg(R3, 0x00000000)  returns 0x00 (0000ms, 0613ms total)
T5A88 001:109 JLINK_WriteReg(R4, 0x00000000)  returns 0x00 (0000ms, 0613ms total)
T5A88 001:109 JLINK_WriteReg(R5, 0x00000000)  returns 0x00 (0000ms, 0613ms total)
T5A88 001:109 JLINK_WriteReg(R6, 0x00000000)  returns 0x00 (0000ms, 0613ms total)
T5A88 001:109 JLINK_WriteReg(R7, 0x00000000)  returns 0x00 (0000ms, 0613ms total)
T5A88 001:109 JLINK_WriteReg(R8, 0x00000000)  returns 0x00 (0000ms, 0613ms total)
T5A88 001:109 JLINK_WriteReg(R9, 0x100001DC)  returns 0x00 (0000ms, 0613ms total)
T5A88 001:109 JLINK_WriteReg(R10, 0x00000000)  returns 0x00 (0000ms, 0613ms total)
T5A88 001:109 JLINK_WriteReg(R11, 0x00000000)  returns 0x00 (0000ms, 0613ms total)
T5A88 001:109 JLINK_WriteReg(R12, 0x00000000)  returns 0x00 (0000ms, 0613ms total)
T5A88 001:109 JLINK_WriteReg(R13, 0x10000800)  returns 0x00 (0000ms, 0613ms total)
T5A88 001:109 JLINK_WriteReg(R14, 0x10000001)  returns 0x00 (0000ms, 0613ms total)
T5A88 001:109 JLINK_WriteReg(R15, 0x10000156)  returns 0x00 (0000ms, 0613ms total)
T5A88 001:109 JLINK_WriteReg(XPSR, 0x01000000)  returns 0x00 (0000ms, 0613ms total)
T5A88 001:109 JLINK_WriteReg(MSP, 0x10000800)  returns 0x00 (0000ms, 0613ms total)
T5A88 001:109 JLINK_WriteReg(PSP, 0x10000800)  returns 0x00 (0000ms, 0613ms total)
T5A88 001:109 JLINK_WriteReg(CFBP, 0x00000000)  returns 0x00 (0000ms, 0613ms total)
T5A88 001:109 JLINK_SetBPEx(Addr = 0x10000000, Type = 0xFFFFFFF2)  returns 0x0000000A (0000ms, 0613ms total)
T5A88 001:109 JLINK_Go() (0002ms, 0615ms total)
T5A88 001:111 JLINK_IsHalted()  returns FALSE (0000ms, 0615ms total)
T5A88 001:162 JLINK_IsHalted()  returns TRUE (0001ms, 0616ms total)
T5A88 001:163 JLINK_ReadReg(R15)  returns 0x10000000 (0000ms, 0615ms total)
T5A88 001:163 JLINK_ClrBPEx(BPHandle = 0x0000000A)  returns 0x00 (0000ms, 0615ms total)
T5A88 001:163 JLINK_ReadReg(R0)  returns 0x00000000 (0000ms, 0615ms total)
T5A88 001:164 JLINK_WriteMem(0x10000204, 0x0400 Bytes, ...) -- Data:  20 30 0B 60 21 4B 43 F8 20 10 21 4B 33 F8 10 30 ... -- CPU_WriteMem(1024 bytes @ 0x10000204)  returns 0x400 (0003ms, 0618ms total)
T5A88 001:167 JLINK_WriteReg(R0, 0x00001800)  returns 0x00 (0000ms, 0618ms total)
T5A88 001:167 JLINK_WriteReg(R1, 0x00000400)  returns 0x00 (0000ms, 0618ms total)
T5A88 001:167 JLINK_WriteReg(R2, 0x10000204)  returns 0x00 (0000ms, 0618ms total)
T5A88 001:167 JLINK_WriteReg(R3, 0x00000000)  returns 0x00 (0001ms, 0619ms total)
T5A88 001:168 JLINK_WriteReg(R4, 0x00000000)  returns 0x00 (0000ms, 0619ms total)
T5A88 001:168 JLINK_WriteReg(R5, 0x00000000)  returns 0x00 (0000ms, 0619ms total)
T5A88 001:168 JLINK_WriteReg(R6, 0x00000000)  returns 0x00 (0000ms, 0619ms total)
T5A88 001:168 JLINK_WriteReg(R7, 0x00000000)  returns 0x00 (0000ms, 0619ms total)
T5A88 001:168 JLINK_WriteReg(R8, 0x00000000)  returns 0x00 (0000ms, 0619ms total)
T5A88 001:168 JLINK_WriteReg(R9, 0x100001DC)  returns 0x00 (0000ms, 0619ms total)
T5A88 001:168 JLINK_WriteReg(R10, 0x00000000)  returns 0x00 (0000ms, 0619ms total)
T5A88 001:168 JLINK_WriteReg(R11, 0x00000000)  returns 0x00 (0000ms, 0619ms total)
T5A88 001:168 JLINK_WriteReg(R12, 0x00000000)  returns 0x00 (0000ms, 0619ms total)
T5A88 001:168 JLINK_WriteReg(R13, 0x10000800)  returns 0x00 (0000ms, 0619ms total)
T5A88 001:168 JLINK_WriteReg(R14, 0x10000001)  returns 0x00 (0000ms, 0619ms total)
T5A88 001:168 JLINK_WriteReg(R15, 0x10000156)  returns 0x00 (0000ms, 0619ms total)
T5A88 001:168 JLINK_WriteReg(XPSR, 0x01000000)  returns 0x00 (0000ms, 0619ms total)
T5A88 001:168 JLINK_WriteReg(MSP, 0x10000800)  returns 0x00 (0000ms, 0619ms total)
T5A88 001:168 JLINK_WriteReg(PSP, 0x10000800)  returns 0x00 (0000ms, 0619ms total)
T5A88 001:168 JLINK_WriteReg(CFBP, 0x00000000)  returns 0x00 (0000ms, 0619ms total)
T5A88 001:168 JLINK_SetBPEx(Addr = 0x10000000, Type = 0xFFFFFFF2)  returns 0x0000000B (0000ms, 0619ms total)
T5A88 001:168 JLINK_Go() (0001ms, 0620ms total)
T5A88 001:169 JLINK_IsHalted()  returns FALSE (0000ms, 0620ms total)
T5A88 001:220 JLINK_IsHalted()  returns TRUE (0002ms, 0622ms total)
T5A88 001:222 JLINK_ReadReg(R15)  returns 0x10000000 (0000ms, 0620ms total)
T5A88 001:222 JLINK_ClrBPEx(BPHandle = 0x0000000B)  returns 0x00 (0000ms, 0620ms total)
T5A88 001:222 JLINK_ReadReg(R0)  returns 0x00000000 (0000ms, 0620ms total)
T5A88 001:222 JLINK_WriteMem(0x10000204, 0x0400 Bytes, ...) -- Data:  04 F2 EC 50 81 42 01 D9 00 BF 00 BF 00 BF 00 BF ... -- CPU_WriteMem(1024 bytes @ 0x10000204)  returns 0x400 (0004ms, 0624ms total)
T5A88 001:226 JLINK_WriteReg(R0, 0x00001C00)  returns 0x00 (0000ms, 0624ms total)
T5A88 001:226 JLINK_WriteReg(R1, 0x00000400)  returns 0x00 (0000ms, 0624ms total)
T5A88 001:226 JLINK_WriteReg(R2, 0x10000204)  returns 0x00 (0000ms, 0624ms total)
T5A88 001:226 JLINK_WriteReg(R3, 0x00000000)  returns 0x00 (0000ms, 0624ms total)
T5A88 001:226 JLINK_WriteReg(R4, 0x00000000)  returns 0x00 (0000ms, 0624ms total)
T5A88 001:226 JLINK_WriteReg(R5, 0x00000000)  returns 0x00 (0000ms, 0624ms total)
T5A88 001:226 JLINK_WriteReg(R6, 0x00000000)  returns 0x00 (0000ms, 0624ms total)
T5A88 001:226 JLINK_WriteReg(R7, 0x00000000)  returns 0x00 (0000ms, 0624ms total)
T5A88 001:226 JLINK_WriteReg(R8, 0x00000000)  returns 0x00 (0000ms, 0624ms total)
T5A88 001:226 JLINK_WriteReg(R9, 0x100001DC)  returns 0x00 (0000ms, 0624ms total)
T5A88 001:226 JLINK_WriteReg(R10, 0x00000000)  returns 0x00 (0000ms, 0624ms total)
T5A88 001:226 JLINK_WriteReg(R11, 0x00000000)  returns 0x00 (0000ms, 0624ms total)
T5A88 001:226 JLINK_WriteReg(R12, 0x00000000)  returns 0x00 (0000ms, 0624ms total)
T5A88 001:226 JLINK_WriteReg(R13, 0x10000800)  returns 0x00 (0000ms, 0624ms total)
T5A88 001:226 JLINK_WriteReg(R14, 0x10000001)  returns 0x00 (0000ms, 0624ms total)
T5A88 001:226 JLINK_WriteReg(R15, 0x10000156)  returns 0x00 (0000ms, 0624ms total)
T5A88 001:226 JLINK_WriteReg(XPSR, 0x01000000)  returns 0x00 (0000ms, 0624ms total)
T5A88 001:226 JLINK_WriteReg(MSP, 0x10000800)  returns 0x00 (0000ms, 0624ms total)
T5A88 001:226 JLINK_WriteReg(PSP, 0x10000800)  returns 0x00 (0000ms, 0624ms total)
T5A88 001:226 JLINK_WriteReg(CFBP, 0x00000000)  returns 0x00 (0000ms, 0624ms total)
T5A88 001:226 JLINK_SetBPEx(Addr = 0x10000000, Type = 0xFFFFFFF2)  returns 0x0000000C (0000ms, 0624ms total)
T5A88 001:226 JLINK_Go() (0002ms, 0626ms total)
T5A88 001:228 JLINK_IsHalted()  returns FALSE (0000ms, 0626ms total)
T5A88 001:279 JLINK_IsHalted()  returns TRUE (0001ms, 0627ms total)
T5A88 001:280 JLINK_ReadReg(R15)  returns 0x10000000 (0000ms, 0626ms total)
T5A88 001:280 JLINK_ClrBPEx(BPHandle = 0x0000000C)  returns 0x00 (0001ms, 0627ms total)
T5A88 001:281 JLINK_ReadReg(R0)  returns 0x00000000 (0000ms, 0627ms total)
T5A88 001:281 JLINK_WriteMem(0x10000204, 0x0400 Bytes, ...) -- Data:  65 B1 68 89 29 89 88 42 08 D1 00 BF 28 68 20 B1 ... -- CPU_WriteMem(1024 bytes @ 0x10000204)  returns 0x400 (0004ms, 0631ms total)
T5A88 001:285 JLINK_WriteReg(R0, 0x00002000)  returns 0x00 (0000ms, 0631ms total)
T5A88 001:285 JLINK_WriteReg(R1, 0x00000400)  returns 0x00 (0000ms, 0631ms total)
T5A88 001:285 JLINK_WriteReg(R2, 0x10000204)  returns 0x00 (0000ms, 0631ms total)
T5A88 001:285 JLINK_WriteReg(R3, 0x00000000)  returns 0x00 (0000ms, 0631ms total)
T5A88 001:285 JLINK_WriteReg(R4, 0x00000000)  returns 0x00 (0000ms, 0631ms total)
T5A88 001:285 JLINK_WriteReg(R5, 0x00000000)  returns 0x00 (0000ms, 0631ms total)
T5A88 001:285 JLINK_WriteReg(R6, 0x00000000)  returns 0x00 (0000ms, 0631ms total)
T5A88 001:285 JLINK_WriteReg(R7, 0x00000000)  returns 0x00 (0000ms, 0631ms total)
T5A88 001:285 JLINK_WriteReg(R8, 0x00000000)  returns 0x00 (0000ms, 0631ms total)
T5A88 001:285 JLINK_WriteReg(R9, 0x100001DC)  returns 0x00 (0000ms, 0631ms total)
T5A88 001:285 JLINK_WriteReg(R10, 0x00000000)  returns 0x00 (0000ms, 0631ms total)
T5A88 001:285 JLINK_WriteReg(R11, 0x00000000)  returns 0x00 (0000ms, 0631ms total)
T5A88 001:285 JLINK_WriteReg(R12, 0x00000000)  returns 0x00 (0000ms, 0631ms total)
T5A88 001:285 JLINK_WriteReg(R13, 0x10000800)  returns 0x00 (0000ms, 0631ms total)
T5A88 001:285 JLINK_WriteReg(R14, 0x10000001)  returns 0x00 (0000ms, 0631ms total)
T5A88 001:285 JLINK_WriteReg(R15, 0x10000156)  returns 0x00 (0000ms, 0631ms total)
T5A88 001:285 JLINK_WriteReg(XPSR, 0x01000000)  returns 0x00 (0000ms, 0631ms total)
T5A88 001:285 JLINK_WriteReg(MSP, 0x10000800)  returns 0x00 (0000ms, 0631ms total)
T5A88 001:285 JLINK_WriteReg(PSP, 0x10000800)  returns 0x00 (0000ms, 0631ms total)
T5A88 001:285 JLINK_WriteReg(CFBP, 0x00000000)  returns 0x00 (0000ms, 0631ms total)
T5A88 001:285 JLINK_SetBPEx(Addr = 0x10000000, Type = 0xFFFFFFF2)  returns 0x0000000D (0000ms, 0631ms total)
T5A88 001:285 JLINK_Go() (0001ms, 0632ms total)
T5A88 001:286 JLINK_IsHalted()  returns FALSE (0001ms, 0633ms total)
T5A88 001:338 JLINK_IsHalted()  returns TRUE (0001ms, 0633ms total)
T5A88 001:339 JLINK_ReadReg(R15)  returns 0x10000000 (0000ms, 0632ms total)
T5A88 001:339 JLINK_ClrBPEx(BPHandle = 0x0000000D)  returns 0x00 (0000ms, 0632ms total)
T5A88 001:339 JLINK_ReadReg(R0)  returns 0x00000000 (0000ms, 0632ms total)
T5A88 001:340 JLINK_WriteMem(0x10000204, 0x0400 Bytes, ...) -- Data:  F3 49 08 60 F2 48 00 68 00 28 E8 D1 00 BF 00 20 ... -- CPU_WriteMem(1024 bytes @ 0x10000204)  returns 0x400 (0004ms, 0636ms total)
T5A88 001:344 JLINK_WriteReg(R0, 0x00002400)  returns 0x00 (0000ms, 0636ms total)
T5A88 001:344 JLINK_WriteReg(R1, 0x00000400)  returns 0x00 (0000ms, 0636ms total)
T5A88 001:344 JLINK_WriteReg(R2, 0x10000204)  returns 0x00 (0000ms, 0636ms total)
T5A88 001:344 JLINK_WriteReg(R3, 0x00000000)  returns 0x00 (0000ms, 0636ms total)
T5A88 001:344 JLINK_WriteReg(R4, 0x00000000)  returns 0x00 (0000ms, 0636ms total)
T5A88 001:344 JLINK_WriteReg(R5, 0x00000000)  returns 0x00 (0000ms, 0636ms total)
T5A88 001:344 JLINK_WriteReg(R6, 0x00000000)  returns 0x00 (0000ms, 0636ms total)
T5A88 001:344 JLINK_WriteReg(R7, 0x00000000)  returns 0x00 (0000ms, 0636ms total)
T5A88 001:344 JLINK_WriteReg(R8, 0x00000000)  returns 0x00 (0000ms, 0636ms total)
T5A88 001:344 JLINK_WriteReg(R9, 0x100001DC)  returns 0x00 (0000ms, 0636ms total)
T5A88 001:344 JLINK_WriteReg(R10, 0x00000000)  returns 0x00 (0000ms, 0636ms total)
T5A88 001:344 JLINK_WriteReg(R11, 0x00000000)  returns 0x00 (0000ms, 0636ms total)
T5A88 001:344 JLINK_WriteReg(R12, 0x00000000)  returns 0x00 (0000ms, 0636ms total)
T5A88 001:344 JLINK_WriteReg(R13, 0x10000800)  returns 0x00 (0000ms, 0636ms total)
T5A88 001:344 JLINK_WriteReg(R14, 0x10000001)  returns 0x00 (0000ms, 0636ms total)
T5A88 001:344 JLINK_WriteReg(R15, 0x10000156)  returns 0x00 (0000ms, 0636ms total)
T5A88 001:344 JLINK_WriteReg(XPSR, 0x01000000)  returns 0x00 (0000ms, 0636ms total)
T5A88 001:344 JLINK_WriteReg(MSP, 0x10000800)  returns 0x00 (0000ms, 0636ms total)
T5A88 001:344 JLINK_WriteReg(PSP, 0x10000800)  returns 0x00 (0000ms, 0636ms total)
T5A88 001:344 JLINK_WriteReg(CFBP, 0x00000000)  returns 0x00 (0000ms, 0636ms total)
T5A88 001:344 JLINK_SetBPEx(Addr = 0x10000000, Type = 0xFFFFFFF2)  returns 0x0000000E (0000ms, 0636ms total)
T5A88 001:344 JLINK_Go() (0001ms, 0637ms total)
T5A88 001:345 JLINK_IsHalted()  returns FALSE (0001ms, 0638ms total)
T5A88 001:397 JLINK_IsHalted()  returns TRUE (0002ms, 0639ms total)
T5A88 001:399 JLINK_ReadReg(R15)  returns 0x10000000 (0000ms, 0637ms total)
T5A88 001:399 JLINK_ClrBPEx(BPHandle = 0x0000000E)  returns 0x00 (0000ms, 0637ms total)
T5A88 001:399 JLINK_ReadReg(R0)  returns 0x00000000 (0000ms, 0637ms total)
T5A88 001:399 JLINK_WriteMem(0x10000204, 0x0400 Bytes, ...) -- Data:  00 BF 00 BF F8 49 E0 68 08 60 E7 68 21 46 02 20 ... -- CPU_WriteMem(1024 bytes @ 0x10000204)  returns 0x400 (0004ms, 0641ms total)
T5A88 001:403 JLINK_WriteReg(R0, 0x00002800)  returns 0x00 (0000ms, 0641ms total)
T5A88 001:403 JLINK_WriteReg(R1, 0x00000400)  returns 0x00 (0000ms, 0641ms total)
T5A88 001:403 JLINK_WriteReg(R2, 0x10000204)  returns 0x00 (0000ms, 0641ms total)
T5A88 001:403 JLINK_WriteReg(R3, 0x00000000)  returns 0x00 (0000ms, 0641ms total)
T5A88 001:403 JLINK_WriteReg(R4, 0x00000000)  returns 0x00 (0000ms, 0641ms total)
T5A88 001:403 JLINK_WriteReg(R5, 0x00000000)  returns 0x00 (0000ms, 0641ms total)
T5A88 001:403 JLINK_WriteReg(R6, 0x00000000)  returns 0x00 (0000ms, 0641ms total)
T5A88 001:403 JLINK_WriteReg(R7, 0x00000000)  returns 0x00 (0000ms, 0641ms total)
T5A88 001:403 JLINK_WriteReg(R8, 0x00000000)  returns 0x00 (0000ms, 0641ms total)
T5A88 001:403 JLINK_WriteReg(R9, 0x100001DC)  returns 0x00 (0000ms, 0641ms total)
T5A88 001:403 JLINK_WriteReg(R10, 0x00000000)  returns 0x00 (0000ms, 0641ms total)
T5A88 001:403 JLINK_WriteReg(R11, 0x00000000)  returns 0x00 (0000ms, 0641ms total)
T5A88 001:403 JLINK_WriteReg(R12, 0x00000000)  returns 0x00 (0000ms, 0641ms total)
T5A88 001:403 JLINK_WriteReg(R13, 0x10000800)  returns 0x00 (0000ms, 0641ms total)
T5A88 001:403 JLINK_WriteReg(R14, 0x10000001)  returns 0x00 (0000ms, 0641ms total)
T5A88 001:403 JLINK_WriteReg(R15, 0x10000156)  returns 0x00 (0000ms, 0641ms total)
T5A88 001:403 JLINK_WriteReg(XPSR, 0x01000000)  returns 0x00 (0000ms, 0641ms total)
T5A88 001:403 JLINK_WriteReg(MSP, 0x10000800)  returns 0x00 (0000ms, 0641ms total)
T5A88 001:403 JLINK_WriteReg(PSP, 0x10000800)  returns 0x00 (0000ms, 0641ms total)
T5A88 001:403 JLINK_WriteReg(CFBP, 0x00000000)  returns 0x00 (0000ms, 0641ms total)
T5A88 001:403 JLINK_SetBPEx(Addr = 0x10000000, Type = 0xFFFFFFF2)  returns 0x0000000F (0000ms, 0641ms total)
T5A88 001:403 JLINK_Go() (0001ms, 0642ms total)
T5A88 001:404 JLINK_IsHalted()  returns FALSE (0001ms, 0643ms total)
T5A88 001:456 JLINK_IsHalted()  returns TRUE (0002ms, 0644ms total)
T5A88 001:458 JLINK_ReadReg(R15)  returns 0x10000000 (0000ms, 0642ms total)
T5A88 001:458 JLINK_ClrBPEx(BPHandle = 0x0000000F)  returns 0x00 (0000ms, 0642ms total)
T5A88 001:458 JLINK_ReadReg(R0)  returns 0x00000000 (0000ms, 0642ms total)
T5A88 001:458 JLINK_WriteMem(0x10000204, 0x0400 Bytes, ...) -- Data:  B4 04 00 10 F7 2A 00 00 CB 6A 48 6A C0 1A 00 28 ... -- CPU_WriteMem(1024 bytes @ 0x10000204)  returns 0x400 (0004ms, 0646ms total)
T5A88 001:462 JLINK_WriteReg(R0, 0x00002C00)  returns 0x00 (0000ms, 0646ms total)
T5A88 001:462 JLINK_WriteReg(R1, 0x00000400)  returns 0x00 (0000ms, 0646ms total)
T5A88 001:462 JLINK_WriteReg(R2, 0x10000204)  returns 0x00 (0000ms, 0646ms total)
T5A88 001:462 JLINK_WriteReg(R3, 0x00000000)  returns 0x00 (0000ms, 0646ms total)
T5A88 001:462 JLINK_WriteReg(R4, 0x00000000)  returns 0x00 (0000ms, 0646ms total)
T5A88 001:462 JLINK_WriteReg(R5, 0x00000000)  returns 0x00 (0000ms, 0646ms total)
T5A88 001:462 JLINK_WriteReg(R6, 0x00000000)  returns 0x00 (0000ms, 0646ms total)
T5A88 001:462 JLINK_WriteReg(R7, 0x00000000)  returns 0x00 (0000ms, 0646ms total)
T5A88 001:462 JLINK_WriteReg(R8, 0x00000000)  returns 0x00 (0000ms, 0646ms total)
T5A88 001:462 JLINK_WriteReg(R9, 0x100001DC)  returns 0x00 (0000ms, 0646ms total)
T5A88 001:462 JLINK_WriteReg(R10, 0x00000000)  returns 0x00 (0000ms, 0646ms total)
T5A88 001:462 JLINK_WriteReg(R11, 0x00000000)  returns 0x00 (0000ms, 0646ms total)
T5A88 001:462 JLINK_WriteReg(R12, 0x00000000)  returns 0x00 (0000ms, 0646ms total)
T5A88 001:462 JLINK_WriteReg(R13, 0x10000800)  returns 0x00 (0000ms, 0646ms total)
T5A88 001:462 JLINK_WriteReg(R14, 0x10000001)  returns 0x00 (0000ms, 0646ms total)
T5A88 001:462 JLINK_WriteReg(R15, 0x10000156)  returns 0x00 (0000ms, 0646ms total)
T5A88 001:462 JLINK_WriteReg(XPSR, 0x01000000)  returns 0x00 (0000ms, 0646ms total)
T5A88 001:462 JLINK_WriteReg(MSP, 0x10000800)  returns 0x00 (0000ms, 0646ms total)
T5A88 001:462 JLINK_WriteReg(PSP, 0x10000800)  returns 0x00 (0000ms, 0646ms total)
T5A88 001:462 JLINK_WriteReg(CFBP, 0x00000000)  returns 0x00 (0000ms, 0646ms total)
T5A88 001:462 JLINK_SetBPEx(Addr = 0x10000000, Type = 0xFFFFFFF2)  returns 0x00000010 (0000ms, 0646ms total)
T5A88 001:462 JLINK_Go() (0001ms, 0647ms total)
T5A88 001:463 JLINK_IsHalted()  returns FALSE (0001ms, 0648ms total)
T5A88 001:515 JLINK_IsHalted()  returns TRUE (0001ms, 0648ms total)
T5A88 001:516 JLINK_ReadReg(R15)  returns 0x10000000 (0001ms, 0648ms total)
T5A88 001:517 JLINK_ClrBPEx(BPHandle = 0x00000010)  returns 0x00 (0000ms, 0648ms total)
T5A88 001:517 JLINK_ReadReg(R0)  returns 0x00000000 (0000ms, 0648ms total)
T5A88 001:518 JLINK_WriteMem(0x10000204, 0x0400 Bytes, ...) -- Data:  02 DD 00 20 84 F8 9C 00 E2 49 E0 6C 09 68 88 42 ... -- CPU_WriteMem(1024 bytes @ 0x10000204)  returns 0x400 (0003ms, 0651ms total)
T5A88 001:521 JLINK_WriteReg(R0, 0x00003000)  returns 0x00 (0000ms, 0651ms total)
T5A88 001:521 JLINK_WriteReg(R1, 0x00000400)  returns 0x00 (0000ms, 0651ms total)
T5A88 001:521 JLINK_WriteReg(R2, 0x10000204)  returns 0x00 (0000ms, 0651ms total)
T5A88 001:521 JLINK_WriteReg(R3, 0x00000000)  returns 0x00 (0001ms, 0652ms total)
T5A88 001:522 JLINK_WriteReg(R4, 0x00000000)  returns 0x00 (0000ms, 0652ms total)
T5A88 001:522 JLINK_WriteReg(R5, 0x00000000)  returns 0x00 (0000ms, 0652ms total)
T5A88 001:522 JLINK_WriteReg(R6, 0x00000000)  returns 0x00 (0000ms, 0652ms total)
T5A88 001:522 JLINK_WriteReg(R7, 0x00000000)  returns 0x00 (0000ms, 0652ms total)
T5A88 001:522 JLINK_WriteReg(R8, 0x00000000)  returns 0x00 (0000ms, 0652ms total)
T5A88 001:522 JLINK_WriteReg(R9, 0x100001DC)  returns 0x00 (0000ms, 0652ms total)
T5A88 001:522 JLINK_WriteReg(R10, 0x00000000)  returns 0x00 (0000ms, 0652ms total)
T5A88 001:522 JLINK_WriteReg(R11, 0x00000000)  returns 0x00 (0000ms, 0652ms total)
T5A88 001:522 JLINK_WriteReg(R12, 0x00000000)  returns 0x00 (0000ms, 0652ms total)
T5A88 001:522 JLINK_WriteReg(R13, 0x10000800)  returns 0x00 (0000ms, 0652ms total)
T5A88 001:522 JLINK_WriteReg(R14, 0x10000001)  returns 0x00 (0000ms, 0652ms total)
T5A88 001:522 JLINK_WriteReg(R15, 0x10000156)  returns 0x00 (0000ms, 0652ms total)
T5A88 001:522 JLINK_WriteReg(XPSR, 0x01000000)  returns 0x00 (0000ms, 0652ms total)
T5A88 001:522 JLINK_WriteReg(MSP, 0x10000800)  returns 0x00 (0000ms, 0652ms total)
T5A88 001:522 JLINK_WriteReg(PSP, 0x10000800)  returns 0x00 (0000ms, 0652ms total)
T5A88 001:522 JLINK_WriteReg(CFBP, 0x00000000)  returns 0x00 (0000ms, 0652ms total)
T5A88 001:522 JLINK_SetBPEx(Addr = 0x10000000, Type = 0xFFFFFFF2)  returns 0x00000011 (0000ms, 0652ms total)
T5A88 001:522 JLINK_Go() (0001ms, 0653ms total)
T5A88 001:523 JLINK_IsHalted()  returns FALSE (0001ms, 0654ms total)
T5A88 001:576 JLINK_IsHalted()  returns TRUE (0002ms, 0655ms total)
T5A88 001:578 JLINK_ReadReg(R15)  returns 0x10000000 (0000ms, 0653ms total)
T5A88 001:578 JLINK_ClrBPEx(BPHandle = 0x00000011)  returns 0x00 (0000ms, 0653ms total)
T5A88 001:578 JLINK_ReadReg(R0)  returns 0x00000000 (0000ms, 0653ms total)
T5A88 001:578 JLINK_WriteMem(0x10000204, 0x0400 Bytes, ...) -- Data:  68 42 01 B2 30 46 FE F7 FC FC 70 B1 00 BF 00 BF ... -- CPU_WriteMem(1024 bytes @ 0x10000204)  returns 0x400 (0004ms, 0657ms total)
T5A88 001:582 JLINK_WriteReg(R0, 0x00003400)  returns 0x00 (0000ms, 0657ms total)
T5A88 001:582 JLINK_WriteReg(R1, 0x00000400)  returns 0x00 (0000ms, 0657ms total)
T5A88 001:582 JLINK_WriteReg(R2, 0x10000204)  returns 0x00 (0000ms, 0657ms total)
T5A88 001:582 JLINK_WriteReg(R3, 0x00000000)  returns 0x00 (0000ms, 0657ms total)
T5A88 001:582 JLINK_WriteReg(R4, 0x00000000)  returns 0x00 (0000ms, 0657ms total)
T5A88 001:582 JLINK_WriteReg(R5, 0x00000000)  returns 0x00 (0000ms, 0657ms total)
T5A88 001:582 JLINK_WriteReg(R6, 0x00000000)  returns 0x00 (0000ms, 0657ms total)
T5A88 001:582 JLINK_WriteReg(R7, 0x00000000)  returns 0x00 (0000ms, 0657ms total)
T5A88 001:582 JLINK_WriteReg(R8, 0x00000000)  returns 0x00 (0000ms, 0657ms total)
T5A88 001:582 JLINK_WriteReg(R9, 0x100001DC)  returns 0x00 (0000ms, 0657ms total)
T5A88 001:582 JLINK_WriteReg(R10, 0x00000000)  returns 0x00 (0000ms, 0657ms total)
T5A88 001:582 JLINK_WriteReg(R11, 0x00000000)  returns 0x00 (0000ms, 0657ms total)
T5A88 001:582 JLINK_WriteReg(R12, 0x00000000)  returns 0x00 (0000ms, 0657ms total)
T5A88 001:582 JLINK_WriteReg(R13, 0x10000800)  returns 0x00 (0000ms, 0657ms total)
T5A88 001:582 JLINK_WriteReg(R14, 0x10000001)  returns 0x00 (0000ms, 0657ms total)
T5A88 001:582 JLINK_WriteReg(R15, 0x10000156)  returns 0x00 (0000ms, 0657ms total)
T5A88 001:582 JLINK_WriteReg(XPSR, 0x01000000)  returns 0x00 (0000ms, 0657ms total)
T5A88 001:582 JLINK_WriteReg(MSP, 0x10000800)  returns 0x00 (0000ms, 0657ms total)
